
T09B4 140:826 SEGGER J-Link V6.44a Log File (0000ms, 0008ms total)
T09B4 140:826 DLL Compiled: Mar  8 2019 17:31:48 (0000ms, 0008ms total)
T09B4 140:826 Logging started @ 2019-05-12 13:04 (0000ms, 0008ms total)
T09B4 140:826 JLINK_SetWarnOutHandler(...) (0000ms, 0008ms total)
T09B4 140:826 JLINK_OpenEx(...)
Firmware: J-Link ARM V8 compiled Nov 28 2014 13:44:46
Hardware: V8.00
Feature(s): RDI,FlashDL,FlashBP,JFlash,GDBFULL
TELNET listener socket opened on port 19021WEBSRV 
Starting webserver (0027ms, 0035ms total)
T09B4 140:826 WEBSRV Webserver running on local port 19080 (0027ms, 0035ms total)
T09B4 140:826   returns O.K. (0027ms, 0035ms total)
T09B4 140:853 JLINK_GetEmuCaps()  returns 0xB9FF7BBF (0000ms, 0035ms total)
T09B4 140:854 JLINK_TIF_GetAvailable(...) (0000ms, 0035ms total)
T09B4 140:854 JLINK_SetErrorOutHandler(...) (0000ms, 0035ms total)
T09B4 140:855 JLINK_ExecCommand("ProjectFile = "F:\毕设资料\----毕设代码----\易天代码\02\智能家居-易天（连接贝壳物联）02\Project\RVMDK（uv5）\JLinkSettings.ini"", ...).   returns 0x00 (0056ms, 0091ms total)
T09B4 140:938 JLINK_ExecCommand("Device = STM32F103C8", ...). Device "STM32F103C8" selected.  returns 0x00 (0038ms, 0129ms total)
T09B4 140:976 JLINK_ExecCommand("DisableConnectionTimeout", ...).   returns 0x01 (0000ms, 0129ms total)
T09B4 140:976 JLINK_GetHardwareVersion()  returns 0x13880 (0001ms, 0130ms total)
T09B4 140:977 JLINK_GetDLLVersion()  returns 64401 (0000ms, 0130ms total)
T09B4 140:977 JLINK_GetFirmwareString(...) (0000ms, 0130ms total)
T09B4 141:036 JLINK_GetDLLVersion()  returns 64401 (0000ms, 0130ms total)
T09B4 141:037 JLINK_GetCompileDateTime() (0000ms, 0130ms total)
T09B4 141:049 JLINK_GetFirmwareString(...) (0000ms, 0130ms total)
T09B4 141:058 JLINK_GetHardwareVersion()  returns 0x13880 (0000ms, 0130ms total)
T09B4 141:082 JLINK_TIF_Select(JLINKARM_TIF_SWD)  returns 0x00 (0002ms, 0132ms total)
T09B4 141:084 JLINK_SetSpeed(5000) (0000ms, 0132ms total)
T09B4 141:084 JLINK_GetId() >0x10B TIF>Found SW-DP with ID 0x1BA01477 >0x0D TIF> >0x28 TIF> >0x0D TIF> >0x28 TIF> >0x0D TIF> >0x28 TIF> >0x0D TIF> >0x28 TIF> >0x0D TIF> >0x21 TIF> >0x0D TIF> >0x28 TIF> >0x0D TIF> >0x28 TIF> >0x0D TIF> >0x28 TIF> >0x0D TIF> >0x21 TIF> >0x0D TIF> >0x21 TIF> >0x0D TIF> >0x28 TIF> >0x0D TIF> >0x21 TIF> >0x0D TIF> >0x21 TIF> >0x0D TIF> >0x28 TIF> >0x0D TIF> >0x28 TIF> >0x0D TIF> >0x28 TIF> >0x0D TIF> >0x21 TIF> >0x0D TIF> >0x21 TIF> >0x0D TIF> >0x28 TIF> >0x0D TIF> >0x21 TIF>
 >0x0D TIF> >0x21 TIF> >0x0D TIF> >0x28 TIF> >0x0D TIF> >0x21 TIF> >0x0D TIF> >0x21 TIF> >0x0D TIF> >0x28 TIF> >0x0D TIF> >0x21 TIF> >0x0D TIF> >0x21 TIF> >0x0D TIF> >0x28 TIF> >0x0D TIF> >0x21 TIF> >0x0D TIF> >0x21 TIF> >0x10B TIF>Found SW-DP with ID 0x1BA01477 >0x0D TIF> >0x28 TIF> >0x0D TIF> >0x28 TIF> >0x0D TIF> >0x28 TIF> >0x0D TIF> >0x28 TIF> >0x0D TIF> >0x21 TIF> >0x0D TIF> >0x28 TIF>Scanning AP map to find all available APs >0x0D TIF> >0x28 TIF> >0x0D TIF> >0x21 TIF> >0x0D TIF> >0x21 TIF>
 >0x0D TIF> >0x28 TIF> >0x0D TIF> >0x21 TIF> >0x0D TIF> >0x21 TIF>AP[1]: Stopped AP scan as end of AP map has been reachedAP[0]: AHB-AP (IDR: 0x14770011)Iterating through AP map to find AHB-AP to use >0x42 TIF> >0x28 TIF> >0x0D TIF> >0x28 TIF> >0x0D TIF> >0x21 TIF> >0x0D TIF> >0x21 TIF> >0x42 TIF> >0x28 TIF> >0x0D TIF> >0x28 TIF> >0x0D TIF> >0x28 TIF> >0x0D TIF> >0x21 TIF> >0x0D TIF> >0x21 TIF>AP[0]: Core foundAP[0]: AHB-AP ROM base: 0xE00FF000 >0x0D TIF> >0x28 TIF> >0x0D TIF> >0x28 TIF> >0x0D TIF>
 >0x28 TIF> >0x0D TIF> >0x21 TIF> >0x0D TIF> >0x21 TIF>CPUID register: 0x411FC231. Implementer code: 0x41 (ARM)Found Cortex-M3 r1p1, Little endian. -- Max. mem block: 0x00002408 -- CPU_ReadMem(4 bytes @ 0xE000EDF0) -- CPU_WriteMem(4 bytes @ 0xE000EDF0) -- CPU_ReadMem(4 bytes @ 0xE0002000)FPUnit: 6 code (BP) slots and 2 literal slots -- CPU_ReadMem(4 bytes @ 0xE000EDFC) -- CPU_WriteMem(4 bytes @ 0xE000EDFC) -- CPU_ReadMem(4 bytes @ 0xE0001000) -- CPU_WriteMem(4 bytes @ 0xE0001000)
 -- CPU_ReadMem(4 bytes @ 0xE000ED88) -- CPU_WriteMem(4 bytes @ 0xE000ED88) -- CPU_ReadMem(4 bytes @ 0xE000ED88) -- CPU_WriteMem(4 bytes @ 0xE000ED88)CoreSight components:ROMTbl[0] @ E00FF000 -- CPU_ReadMem(16 bytes @ 0xE00FF000) -- CPU_ReadMem(16 bytes @ 0xE000EFF0) -- CPU_ReadMem(16 bytes @ 0xE000EFE0)ROMTbl[0][0]: E000E000, CID: B105E00D, PID: 001BB000 SCS -- CPU_ReadMem(16 bytes @ 0xE0001FF0) -- CPU_ReadMem(16 bytes @ 0xE0001FE0)ROMTbl[0][1]: E0001000, CID: B105E00D, PID: 001BB002 DWT
 -- CPU_ReadMem(16 bytes @ 0xE0002FF0) -- CPU_ReadMem(16 bytes @ 0xE0002FE0)ROMTbl[0][2]: E0002000, CID: B105E00D, PID: 000BB003 FPB -- CPU_ReadMem(16 bytes @ 0xE0000FF0) -- CPU_ReadMem(16 bytes @ 0xE0000FE0)ROMTbl[0][3]: E0000000, CID: B105E00D, PID: 001BB001 ITM -- CPU_ReadMem(16 bytes @ 0xE00FF010) -- CPU_ReadMem(16 bytes @ 0xE0040FF0) -- CPU_ReadMem(16 bytes @ 0xE0040FE0)ROMTbl[0][4]: E0040000, CID: B105900D, PID: 001BB923 TPIU-Lite >0x0D TIF> >0x21 TIF>  returns 0x1BA01477 (0335ms, 0467ms total)
T09B4 141:419 JLINK_GetDLLVersion()  returns 64401 (0000ms, 0467ms total)
T09B4 141:419 JLINK_CORE_GetFound()  returns 0x30000FF (0000ms, 0467ms total)
T09B4 141:419 JLINK_GetDebugInfo(0x100 = JLINKARM_ROM_TABLE_ADDR_INDEX) -- Value=0xE00FF000  returns 0x00 (0001ms, 0468ms total)
T09B4 141:426 JLINK_GetDebugInfo(0x100 = JLINKARM_ROM_TABLE_ADDR_INDEX) -- Value=0xE00FF000  returns 0x00 (0000ms, 0468ms total)
T09B4 141:426 JLINK_GetDebugInfo(0x101 = JLINKARM_DEBUG_INFO_ETM_ADDR_INDEX) -- Value=0x00000000  returns 0x00 (0000ms, 0468ms total)
T09B4 141:426 JLINK_ReadMemEx(0xE0041FF0, 0x0010 Bytes, ..., Flags = 0x02000004) -- CPU_ReadMem(16 bytes @ 0xE0041FF0) - Data: 00 00 00 00 00 00 00 00 00 00 00 00 00 00 00 00  returns 0x10 (0001ms, 0469ms total)
T09B4 141:427 JLINK_GetDebugInfo(0x102 = JLINKARM_DEBUG_INFO_MTB_ADDR_INDEX) -- Value=0x00000000  returns 0x00 (0000ms, 0469ms total)
T09B4 141:427 JLINK_GetDebugInfo(0x103 = JLINKARM_DEBUG_INFO_TPIU_ADDR_INDEX) -- Value=0xE0040000  returns 0x00 (0000ms, 0469ms total)
T09B4 141:427 JLINK_GetDebugInfo(0x104 = JLINKARM_DEBUG_INFO_ITM_ADDR_INDEX) -- Value=0xE0000000  returns 0x00 (0000ms, 0469ms total)
T09B4 141:427 JLINK_GetDebugInfo(0x105 = JLINKARM_DEBUG_INFO_DWT_ADDR_INDEX) -- Value=0xE0001000  returns 0x00 (0000ms, 0469ms total)
T09B4 141:427 JLINK_GetDebugInfo(0x106 = JLINKARM_DEBUG_INFO_FPB_ADDR_INDEX) -- Value=0xE0002000  returns 0x00 (0000ms, 0469ms total)
T09B4 141:427 JLINK_GetDebugInfo(0x107 = JLINKARM_DEBUG_INFO_NVIC_ADDR_INDEX) -- Value=0xE000E000  returns 0x00 (0000ms, 0469ms total)
T09B4 141:427 JLINK_GetDebugInfo(0x10C = JLINKARM_DEBUG_INFO_DBG_ADDR_INDEX) -- Value=0xE000EDF0  returns 0x00 (0000ms, 0469ms total)
T09B4 141:427 JLINK_GetDebugInfo(0x01 = Unknown) -- Value=0x00000000  returns 0x00 (0000ms, 0469ms total)
T09B4 141:428 JLINK_ReadMemU32(0xE000ED00, 0x0001 Items, ...) -- CPU_ReadMem(4 bytes @ 0xE000ED00) - Data: 31 C2 1F 41  returns 1 (0000ms, 0470ms total)
T09B4 141:428 JLINK_GetDebugInfo(0x10F = JLINKARM_DEBUG_INFO_HAS_CORTEX_M_SECURITY_EXT_INDEX) -- Value=0x00000000  returns 0x00 (0001ms, 0471ms total)
T09B4 141:429 JLINK_SetResetType(JLINKARM_CM3_RESET_TYPE_NORMAL)  returns JLINKARM_CM3_RESET_TYPE_NORMAL (0000ms, 0471ms total)
T09B4 141:429 JLINK_Reset() -- CPU is running -- CPU_WriteMem(4 bytes @ 0xE000EDF0) -- CPU is running -- CPU_WriteMem(4 bytes @ 0xE000EDFC)Reset: Halt core after reset via DEMCR.VC_CORERESET. >0x35 TIF>Reset: Reset device via AIRCR.SYSRESETREQ. -- CPU is running -- CPU_WriteMem(4 bytes @ 0xE000ED0C) >0x0D TIF> >0x28 TIF> -- CPU_ReadMem(4 bytes @ 0xE000EDF0) -- CPU_ReadMem(4 bytes @ 0xE000EDF0) -- CPU is running -- CPU_WriteMem(4 bytes @ 0xE000EDF0) -- CPU is running -- CPU_WriteMem(4 bytes @ 0xE000EDFC)
 -- CPU_ReadMem(4 bytes @ 0xE000EDF0) -- CPU_WriteMem(4 bytes @ 0xE0002000) -- CPU_ReadMem(4 bytes @ 0xE000EDFC) -- CPU_ReadMem(4 bytes @ 0xE0001000) (0088ms, 0559ms total)
T09B4 141:518 JLINK_Halt()  returns 0x00 (0000ms, 0559ms total)
T09B4 141:518 JLINK_ReadMemU32(0xE000EDF0, 0x0001 Items, ...) -- CPU_ReadMem(4 bytes @ 0xE000EDF0) - Data: 03 00 03 00  returns 1 (0000ms, 0559ms total)
T09B4 141:518 JLINK_WriteU32(0xE000EDF0, 0xA05F0003) -- CPU_WriteMem(4 bytes @ 0xE000EDF0)  returns 0 (0001ms, 0560ms total)
T09B4 141:519 JLINK_WriteU32(0xE000EDFC, 0x01000000) -- CPU_WriteMem(4 bytes @ 0xE000EDFC)  returns 0 (0001ms, 0561ms total)
T09B4 141:540 JLINK_GetHWStatus(...)  returns 0x00 (0001ms, 0562ms total)
T09B4 141:556 JLINK_GetNumBPUnits(Type = 0xFFFFFF00)  returns 0x06 (0000ms, 0562ms total)
T09B4 141:556 JLINK_GetNumBPUnits(Type = 0xF0)  returns 0x2000 (0000ms, 0562ms total)
T09B4 141:556 JLINK_GetNumWPUnits()  returns 0x04 (0000ms, 0562ms total)
T09B4 141:569 JLINK_GetSpeed()  returns 0xFA0 (0001ms, 0563ms total)
T09B4 141:579 JLINK_ReadMemU32(0xE000E004, 0x0001 Items, ...) -- CPU_ReadMem(4 bytes @ 0xE000E004) - Data: 01 00 00 00  returns 1 (0001ms, 0564ms total)
T09B4 141:580 JLINK_ReadMemU32(0xE000E004, 0x0001 Items, ...) -- CPU_ReadMem(4 bytes @ 0xE000E004) - Data: 01 00 00 00  returns 1 (0001ms, 0565ms total)
T09B4 141:581 JLINK_WriteMemEx(0xE0001000, 0x001C Bytes, ..., Flags = 0x02000004) - Data: 01 00 00 00 00 00 00 00 00 00 00 00 00 00 00 00 ... -- CPU_WriteMem(28 bytes @ 0xE0001000)  returns 0x1C (0002ms, 0567ms total)
T09B4 141:583 JLINK_Halt()  returns 0x00 (0000ms, 0567ms total)
T09B4 141:583 JLINK_IsHalted()  returns TRUE (0000ms, 0567ms total)
T09B4 141:589 JLINK_WriteMem(0x20000000, 0x0164 Bytes, ...) - Data: 00 BE 0A E0 0D 78 2D 06 68 40 08 24 40 00 00 D3 ... -- CPU_WriteMem(356 bytes @ 0x20000000)  returns 0x164 (0003ms, 0570ms total)
T09B4 141:592 JLINK_WriteReg(R0, 0x08000000)  returns 0x00 (0000ms, 0570ms total)
T09B4 141:592 JLINK_WriteReg(R1, 0x007A1200)  returns 0x00 (0000ms, 0570ms total)
T09B4 141:592 JLINK_WriteReg(R2, 0x00000001)  returns 0x00 (0000ms, 0570ms total)
T09B4 141:592 JLINK_WriteReg(R3, 0x00000000)  returns 0x00 (0001ms, 0571ms total)
T09B4 141:593 JLINK_WriteReg(R4, 0x00000000)  returns 0x00 (0000ms, 0571ms total)
T09B4 141:593 JLINK_WriteReg(R5, 0x00000000)  returns 0x00 (0000ms, 0571ms total)
T09B4 141:593 JLINK_WriteReg(R6, 0x00000000)  returns 0x00 (0000ms, 0571ms total)
T09B4 141:593 JLINK_WriteReg(R7, 0x00000000)  returns 0x00 (0000ms, 0571ms total)
T09B4 141:593 JLINK_WriteReg(R8, 0x00000000)  returns 0x00 (0000ms, 0571ms total)
T09B4 141:593 JLINK_WriteReg(R9, 0x20000160)  returns 0x00 (0000ms, 0571ms total)
T09B4 141:593 JLINK_WriteReg(R10, 0x00000000)  returns 0x00 (0000ms, 0571ms total)
T09B4 141:593 JLINK_WriteReg(R11, 0x00000000)  returns 0x00 (0000ms, 0571ms total)
T09B4 141:593 JLINK_WriteReg(R12, 0x00000000)  returns 0x00 (0000ms, 0571ms total)
T09B4 141:593 JLINK_WriteReg(R13 (SP), 0x20001000)  returns 0x00 (0000ms, 0571ms total)
T09B4 141:593 JLINK_WriteReg(R14, 0x20000001)  returns 0x00 (0000ms, 0571ms total)
T09B4 141:593 JLINK_WriteReg(R15 (PC), 0x20000038)  returns 0x00 (0000ms, 0571ms total)
T09B4 141:593 JLINK_WriteReg(XPSR, 0x01000000)  returns 0x00 (0000ms, 0571ms total)
T09B4 141:593 JLINK_WriteReg(MSP, 0x20001000)  returns 0x00 (0000ms, 0571ms total)
T09B4 141:593 JLINK_WriteReg(PSP, 0x20001000)  returns 0x00 (0000ms, 0571ms total)
T09B4 141:593 JLINK_WriteReg(CFBP, 0x00000000)  returns 0x00 (0000ms, 0571ms total)
T09B4 141:593 JLINK_SetBPEx(Addr = 0x20000000, Type = 0xFFFFFFF2) -- CPU_ReadMem(2 bytes @ 0x20000000)  returns 0x00000001 (0001ms, 0572ms total)
T09B4 141:594 JLINK_Go() -- CPU_WriteMem(2 bytes @ 0x20000000) -- CPU_ReadMem(4 bytes @ 0xE0001000) -- CPU_WriteMem(4 bytes @ 0xE0002008) -- CPU_WriteMem(4 bytes @ 0xE000200C) -- CPU_WriteMem(4 bytes @ 0xE0002010) -- CPU_WriteMem(4 bytes @ 0xE0002014) -- CPU_WriteMem(4 bytes @ 0xE0002018) -- CPU_WriteMem(4 bytes @ 0xE000201C) -- CPU_WriteMem(4 bytes @ 0xE0001004) (0008ms, 0580ms total)
T09B4 141:602 JLINK_IsHalted() -- CPU_ReadMem(2 bytes @ 0x20000000)  returns TRUE (0003ms, 0583ms total)
T09B4 141:605 JLINK_ReadReg(R15 (PC))  returns 0x20000000 (0000ms, 0580ms total)
T09B4 141:605 JLINK_ClrBPEx(BPHandle = 0x00000001)  returns 0x00 (0001ms, 0581ms total)
T09B4 141:606 JLINK_ReadReg(R0)  returns 0x00000000 (0000ms, 0581ms total)
T09B4 141:607 JLINK_WriteReg(R0, 0x08000000)  returns 0x00 (0000ms, 0581ms total)
T09B4 141:607 JLINK_WriteReg(R1, 0x007A1200)  returns 0x00 (0000ms, 0581ms total)
T09B4 141:607 JLINK_WriteReg(R2, 0x00000001)  returns 0x00 (0000ms, 0581ms total)
T09B4 141:607 JLINK_WriteReg(R3, 0x00000000)  returns 0x00 (0000ms, 0581ms total)
T09B4 141:607 JLINK_WriteReg(R4, 0x00000000)  returns 0x00 (0000ms, 0581ms total)
T09B4 141:607 JLINK_WriteReg(R5, 0x00000000)  returns 0x00 (0000ms, 0581ms total)
T09B4 141:607 JLINK_WriteReg(R6, 0x00000000)  returns 0x00 (0000ms, 0581ms total)
T09B4 141:607 JLINK_WriteReg(R7, 0x00000000)  returns 0x00 (0000ms, 0581ms total)
T09B4 141:607 JLINK_WriteReg(R8, 0x00000000)  returns 0x00 (0000ms, 0581ms total)
T09B4 141:607 JLINK_WriteReg(R9, 0x20000160)  returns 0x00 (0000ms, 0581ms total)
T09B4 141:607 JLINK_WriteReg(R10, 0x00000000)  returns 0x00 (0000ms, 0581ms total)
T09B4 141:607 JLINK_WriteReg(R11, 0x00000000)  returns 0x00 (0000ms, 0581ms total)
T09B4 141:607 JLINK_WriteReg(R12, 0x00000000)  returns 0x00 (0000ms, 0581ms total)
T09B4 141:607 JLINK_WriteReg(R13 (SP), 0x20001000)  returns 0x00 (0000ms, 0581ms total)
T09B4 141:607 JLINK_WriteReg(R14, 0x20000001)  returns 0x00 (0000ms, 0581ms total)
T09B4 141:608 JLINK_WriteReg(R15 (PC), 0x2000007C)  returns 0x00 (0000ms, 0582ms total)
T09B4 141:608 JLINK_WriteReg(XPSR, 0x01000000)  returns 0x00 (0000ms, 0582ms total)
T09B4 141:608 JLINK_WriteReg(MSP, 0x20001000)  returns 0x00 (0000ms, 0582ms total)
T09B4 141:608 JLINK_WriteReg(PSP, 0x20001000)  returns 0x00 (0000ms, 0582ms total)
T09B4 141:608 JLINK_WriteReg(CFBP, 0x00000000)  returns 0x00 (0000ms, 0582ms total)
T09B4 141:608 JLINK_SetBPEx(Addr = 0x20000000, Type = 0xFFFFFFF2)  returns 0x00000002 (0000ms, 0582ms total)
T09B4 141:608 JLINK_Go() -- CPU_ReadMem(4 bytes @ 0xE0001000) (0003ms, 0585ms total)
T09B4 141:611 JLINK_IsHalted()  returns FALSE (0001ms, 0586ms total)
T09B4 141:711 JLINK_IsHalted() -- CPU_ReadMem(2 bytes @ 0x20000000)  returns TRUE (0003ms, 0588ms total)
T09B4 141:714 JLINK_ReadReg(R15 (PC))  returns 0x20000000 (0000ms, 0585ms total)
T09B4 141:714 JLINK_ClrBPEx(BPHandle = 0x00000002)  returns 0x00 (0000ms, 0585ms total)
T09B4 141:714 JLINK_ReadReg(R0)  returns 0x00000000 (0000ms, 0585ms total)
T09B4 141:767 JLINK_WriteReg(R0, 0x00000001)  returns 0x00 (0000ms, 0585ms total)
T09B4 141:767 JLINK_WriteReg(R1, 0x007A1200)  returns 0x00 (0000ms, 0585ms total)
T09B4 141:767 JLINK_WriteReg(R2, 0x00000001)  returns 0x00 (0000ms, 0585ms total)
T09B4 141:767 JLINK_WriteReg(R3, 0x00000000)  returns 0x00 (0000ms, 0585ms total)
T09B4 141:767 JLINK_WriteReg(R4, 0x00000000)  returns 0x00 (0000ms, 0585ms total)
T09B4 141:767 JLINK_WriteReg(R5, 0x00000000)  returns 0x00 (0000ms, 0585ms total)
T09B4 141:767 JLINK_WriteReg(R6, 0x00000000)  returns 0x00 (0000ms, 0585ms total)
T09B4 141:767 JLINK_WriteReg(R7, 0x00000000)  returns 0x00 (0000ms, 0585ms total)
T09B4 141:767 JLINK_WriteReg(R8, 0x00000000)  returns 0x00 (0000ms, 0585ms total)
T09B4 141:768 JLINK_WriteReg(R9, 0x20000160)  returns 0x00 (0000ms, 0586ms total)
T09B4 141:768 JLINK_WriteReg(R10, 0x00000000)  returns 0x00 (0000ms, 0586ms total)
T09B4 141:768 JLINK_WriteReg(R11, 0x00000000)  returns 0x00 (0000ms, 0586ms total)
T09B4 141:768 JLINK_WriteReg(R12, 0x00000000)  returns 0x00 (0000ms, 0586ms total)
T09B4 141:768 JLINK_WriteReg(R13 (SP), 0x20001000)  returns 0x00 (0000ms, 0586ms total)
T09B4 141:768 JLINK_WriteReg(R14, 0x20000001)  returns 0x00 (0000ms, 0586ms total)
T09B4 141:768 JLINK_WriteReg(R15 (PC), 0x2000006A)  returns 0x00 (0000ms, 0586ms total)
T09B4 141:768 JLINK_WriteReg(XPSR, 0x01000000)  returns 0x00 (0000ms, 0586ms total)
T09B4 141:768 JLINK_WriteReg(MSP, 0x20001000)  returns 0x00 (0000ms, 0586ms total)
T09B4 141:768 JLINK_WriteReg(PSP, 0x20001000)  returns 0x00 (0000ms, 0586ms total)
T09B4 141:768 JLINK_WriteReg(CFBP, 0x00000000)  returns 0x00 (0000ms, 0586ms total)
T09B4 141:768 JLINK_SetBPEx(Addr = 0x20000000, Type = 0xFFFFFFF2)  returns 0x00000003 (0000ms, 0586ms total)
T09B4 141:768 JLINK_Go() -- CPU_ReadMem(4 bytes @ 0xE0001000) (0004ms, 0590ms total)
T09B4 141:772 JLINK_IsHalted() -- CPU_ReadMem(2 bytes @ 0x20000000)  returns TRUE (0004ms, 0594ms total)
T09B4 141:776 JLINK_ReadReg(R15 (PC))  returns 0x20000000 (0000ms, 0590ms total)
T09B4 141:776 JLINK_ClrBPEx(BPHandle = 0x00000003)  returns 0x00 (0000ms, 0590ms total)
T09B4 141:776 JLINK_ReadReg(R0)  returns 0x00000000 (0000ms, 0590ms total)
T09B4 141:786 JLINK_WriteMem(0x20000000, 0x0164 Bytes, ...) - Data: 00 BE 0A E0 0D 78 2D 06 68 40 08 24 40 00 00 D3 ... -- CPU_WriteMem(356 bytes @ 0x20000000)  returns 0x164 (0003ms, 0593ms total)
T09B4 141:789 JLINK_WriteReg(R0, 0x08000000)  returns 0x00 (0001ms, 0594ms total)
T09B4 141:790 JLINK_WriteReg(R1, 0x007A1200)  returns 0x00 (0000ms, 0594ms total)
T09B4 141:790 JLINK_WriteReg(R2, 0x00000002)  returns 0x00 (0000ms, 0594ms total)
T09B4 141:790 JLINK_WriteReg(R3, 0x00000000)  returns 0x00 (0000ms, 0594ms total)
T09B4 141:790 JLINK_WriteReg(R4, 0x00000000)  returns 0x00 (0000ms, 0594ms total)
T09B4 141:790 JLINK_WriteReg(R5, 0x00000000)  returns 0x00 (0000ms, 0594ms total)
T09B4 141:790 JLINK_WriteReg(R6, 0x00000000)  returns 0x00 (0000ms, 0594ms total)
T09B4 141:790 JLINK_WriteReg(R7, 0x00000000)  returns 0x00 (0000ms, 0594ms total)
T09B4 141:790 JLINK_WriteReg(R8, 0x00000000)  returns 0x00 (0000ms, 0594ms total)
T09B4 141:790 JLINK_WriteReg(R9, 0x20000160)  returns 0x00 (0000ms, 0594ms total)
T09B4 141:790 JLINK_WriteReg(R10, 0x00000000)  returns 0x00 (0000ms, 0594ms total)
T09B4 141:790 JLINK_WriteReg(R11, 0x00000000)  returns 0x00 (0000ms, 0594ms total)
T09B4 141:790 JLINK_WriteReg(R12, 0x00000000)  returns 0x00 (0000ms, 0594ms total)
T09B4 141:790 JLINK_WriteReg(R13 (SP), 0x20001000)  returns 0x00 (0000ms, 0594ms total)
T09B4 141:790 JLINK_WriteReg(R14, 0x20000001)  returns 0x00 (0000ms, 0594ms total)
T09B4 141:790 JLINK_WriteReg(R15 (PC), 0x20000038)  returns 0x00 (0000ms, 0594ms total)
T09B4 141:790 JLINK_WriteReg(XPSR, 0x01000000)  returns 0x00 (0000ms, 0594ms total)
T09B4 141:790 JLINK_WriteReg(MSP, 0x20001000)  returns 0x00 (0000ms, 0594ms total)
T09B4 141:790 JLINK_WriteReg(PSP, 0x20001000)  returns 0x00 (0000ms, 0594ms total)
T09B4 141:790 JLINK_WriteReg(CFBP, 0x00000000)  returns 0x00 (0000ms, 0594ms total)
T09B4 141:790 JLINK_SetBPEx(Addr = 0x20000000, Type = 0xFFFFFFF2) -- CPU_ReadMem(2 bytes @ 0x20000000)  returns 0x00000004 (0001ms, 0595ms total)
T09B4 141:791 JLINK_Go() -- CPU_WriteMem(2 bytes @ 0x20000000) -- CPU_ReadMem(4 bytes @ 0xE0001000) (0005ms, 0600ms total)
T09B4 141:796 JLINK_IsHalted() -- CPU_ReadMem(2 bytes @ 0x20000000)  returns TRUE (0004ms, 0604ms total)
T09B4 141:800 JLINK_ReadReg(R15 (PC))  returns 0x20000000 (0000ms, 0600ms total)
T09B4 141:800 JLINK_ClrBPEx(BPHandle = 0x00000004)  returns 0x00 (0000ms, 0600ms total)
T09B4 141:800 JLINK_ReadReg(R0)  returns 0x00000000 (0000ms, 0600ms total)
T09B4 141:801 JLINK_WriteMem(0x20000164, 0x029C Bytes, ...) - Data: 70 0A 00 20 01 01 00 08 F9 19 00 08 E5 12 00 08 ... -- CPU_WriteMem(668 bytes @ 0x20000164)  returns 0x29C (0005ms, 0605ms total)
T09B4 141:806 JLINK_WriteMem(0x20000400, 0x0164 Bytes, ...) - Data: 44 FA 07 46 88 46 2A 46 33 46 10 46 19 46 00 F0 ... -- CPU_WriteMem(356 bytes @ 0x20000400)  returns 0x164 (0003ms, 0608ms total)
T09B4 141:809 JLINK_WriteReg(R0, 0x08000000)  returns 0x00 (0000ms, 0608ms total)
T09B4 141:809 JLINK_WriteReg(R1, 0x00000400)  returns 0x00 (0000ms, 0608ms total)
T09B4 141:809 JLINK_WriteReg(R2, 0x20000164)  returns 0x00 (0000ms, 0608ms total)
T09B4 141:809 JLINK_WriteReg(R3, 0x00000000)  returns 0x00 (0000ms, 0608ms total)
T09B4 141:809 JLINK_WriteReg(R4, 0x00000000)  returns 0x00 (0000ms, 0608ms total)
T09B4 141:809 JLINK_WriteReg(R5, 0x00000000)  returns 0x00 (0000ms, 0608ms total)
T09B4 141:809 JLINK_WriteReg(R6, 0x00000000)  returns 0x00 (0000ms, 0608ms total)
T09B4 141:809 JLINK_WriteReg(R7, 0x00000000)  returns 0x00 (0000ms, 0608ms total)
T09B4 141:809 JLINK_WriteReg(R8, 0x00000000)  returns 0x00 (0000ms, 0608ms total)
T09B4 141:809 JLINK_WriteReg(R9, 0x20000160)  returns 0x00 (0000ms, 0608ms total)
T09B4 141:809 JLINK_WriteReg(R10, 0x00000000)  returns 0x00 (0000ms, 0608ms total)
T09B4 141:809 JLINK_WriteReg(R11, 0x00000000)  returns 0x00 (0000ms, 0608ms total)
T09B4 141:809 JLINK_WriteReg(R12, 0x00000000)  returns 0x00 (0000ms, 0608ms total)
T09B4 141:809 JLINK_WriteReg(R13 (SP), 0x20001000)  returns 0x00 (0000ms, 0608ms total)
T09B4 141:809 JLINK_WriteReg(R14, 0x20000001)  returns 0x00 (0000ms, 0608ms total)
T09B4 141:809 JLINK_WriteReg(R15 (PC), 0x200000F4)  returns 0x00 (0000ms, 0608ms total)
T09B4 141:809 JLINK_WriteReg(XPSR, 0x01000000)  returns 0x00 (0000ms, 0608ms total)
T09B4 141:809 JLINK_WriteReg(MSP, 0x20001000)  returns 0x00 (0001ms, 0609ms total)
T09B4 141:810 JLINK_WriteReg(PSP, 0x20001000)  returns 0x00 (0000ms, 0609ms total)
T09B4 141:810 JLINK_WriteReg(CFBP, 0x00000000)  returns 0x00 (0000ms, 0609ms total)
T09B4 141:810 JLINK_SetBPEx(Addr = 0x20000000, Type = 0xFFFFFFF2)  returns 0x00000005 (0000ms, 0609ms total)
T09B4 141:810 JLINK_Go() -- CPU_ReadMem(4 bytes @ 0xE0001000) (0003ms, 0612ms total)
T09B4 141:813 JLINK_IsHalted()  returns FALSE (0001ms, 0613ms total)
T09B4 141:828 JLINK_IsHalted()  returns FALSE (0001ms, 0613ms total)
T09B4 141:831 JLINK_IsHalted()  returns FALSE (0001ms, 0613ms total)
T09B4 141:834 JLINK_IsHalted()  returns FALSE (0000ms, 0612ms total)
T09B4 141:837 JLINK_IsHalted()  returns FALSE (0001ms, 0613ms total)
T09B4 141:843 JLINK_IsHalted()  returns FALSE (0001ms, 0613ms total)
T09B4 141:846 JLINK_IsHalted() -- CPU_ReadMem(2 bytes @ 0x20000000)  returns TRUE (0004ms, 0616ms total)
T09B4 141:850 JLINK_ReadReg(R15 (PC))  returns 0x20000000 (0000ms, 0612ms total)
T09B4 141:850 JLINK_ClrBPEx(BPHandle = 0x00000005)  returns 0x00 (0000ms, 0612ms total)
T09B4 141:850 JLINK_ReadReg(R0)  returns 0x00000000 (0000ms, 0612ms total)
T09B4 141:851 JLINK_WriteMem(0x20000164, 0x029C Bytes, ...) - Data: B9 69 6D 1C 0E 98 88 47 82 46 00 2E D1 DC 53 E0 ... -- CPU_WriteMem(668 bytes @ 0x20000164)  returns 0x29C (0005ms, 0617ms total)
T09B4 141:856 JLINK_WriteMem(0x20000400, 0x0164 Bytes, ...) - Data: 40 46 21 46 F9 E7 00 1B 61 EB 02 01 00 1C 41 F5 ... -- CPU_WriteMem(356 bytes @ 0x20000400)  returns 0x164 (0003ms, 0620ms total)
T09B4 141:859 JLINK_WriteReg(R0, 0x08000400)  returns 0x00 (0000ms, 0620ms total)
T09B4 141:859 JLINK_WriteReg(R1, 0x00000400)  returns 0x00 (0000ms, 0620ms total)
T09B4 141:859 JLINK_WriteReg(R2, 0x20000164)  returns 0x00 (0000ms, 0620ms total)
T09B4 141:859 JLINK_WriteReg(R3, 0x00000000)  returns 0x00 (0000ms, 0620ms total)
T09B4 141:859 JLINK_WriteReg(R4, 0x00000000)  returns 0x00 (0000ms, 0620ms total)
T09B4 141:859 JLINK_WriteReg(R5, 0x00000000)  returns 0x00 (0000ms, 0620ms total)
T09B4 141:859 JLINK_WriteReg(R6, 0x00000000)  returns 0x00 (0001ms, 0621ms total)
T09B4 141:860 JLINK_WriteReg(R7, 0x00000000)  returns 0x00 (0000ms, 0621ms total)
T09B4 141:860 JLINK_WriteReg(R8, 0x00000000)  returns 0x00 (0000ms, 0621ms total)
T09B4 141:860 JLINK_WriteReg(R9, 0x20000160)  returns 0x00 (0000ms, 0621ms total)
T09B4 141:860 JLINK_WriteReg(R10, 0x00000000)  returns 0x00 (0000ms, 0621ms total)
T09B4 141:860 JLINK_WriteReg(R11, 0x00000000)  returns 0x00 (0000ms, 0621ms total)
T09B4 141:860 JLINK_WriteReg(R12, 0x00000000)  returns 0x00 (0000ms, 0621ms total)
T09B4 141:860 JLINK_WriteReg(R13 (SP), 0x20001000)  returns 0x00 (0000ms, 0621ms total)
T09B4 141:860 JLINK_WriteReg(R14, 0x20000001)  returns 0x00 (0000ms, 0621ms total)
T09B4 141:860 JLINK_WriteReg(R15 (PC), 0x200000F4)  returns 0x00 (0000ms, 0621ms total)
T09B4 141:860 JLINK_WriteReg(XPSR, 0x01000000)  returns 0x00 (0000ms, 0621ms total)
T09B4 141:860 JLINK_WriteReg(MSP, 0x20001000)  returns 0x00 (0000ms, 0621ms total)
T09B4 141:860 JLINK_WriteReg(PSP, 0x20001000)  returns 0x00 (0000ms, 0621ms total)
T09B4 141:860 JLINK_WriteReg(CFBP, 0x00000000)  returns 0x00 (0000ms, 0621ms total)
T09B4 141:860 JLINK_SetBPEx(Addr = 0x20000000, Type = 0xFFFFFFF2)  returns 0x00000006 (0000ms, 0621ms total)
T09B4 141:860 JLINK_Go() -- CPU_ReadMem(4 bytes @ 0xE0001000) (0004ms, 0625ms total)
T09B4 141:864 JLINK_IsHalted()  returns FALSE (0001ms, 0626ms total)
T09B4 141:880 JLINK_IsHalted()  returns FALSE (0001ms, 0626ms total)
T09B4 141:883 JLINK_IsHalted()  returns FALSE (0001ms, 0626ms total)
T09B4 141:897 JLINK_IsHalted() -- CPU_ReadMem(2 bytes @ 0x20000000)  returns TRUE (0003ms, 0628ms total)
T09B4 141:900 JLINK_ReadReg(R15 (PC))  returns 0x20000000 (0000ms, 0625ms total)
T09B4 141:900 JLINK_ClrBPEx(BPHandle = 0x00000006)  returns 0x00 (0001ms, 0626ms total)
T09B4 141:901 JLINK_ReadReg(R0)  returns 0x00000000 (0000ms, 0626ms total)
T09B4 141:902 JLINK_WriteMem(0x20000164, 0x029C Bytes, ...) - Data: BD E8 F0 8F 00 20 01 46 F9 E7 2D E9 F0 4D 81 EA ... -- CPU_WriteMem(668 bytes @ 0x20000164)  returns 0x29C (0005ms, 0631ms total)
T09B4 141:907 JLINK_WriteMem(0x20000400, 0x0164 Bytes, ...) - Data: 4E 41 20 1E A4 F1 01 04 DF DC 48 46 31 46 2A 46 ... -- CPU_WriteMem(356 bytes @ 0x20000400)  returns 0x164 (0003ms, 0634ms total)
T09B4 141:910 JLINK_WriteReg(R0, 0x08000800)  returns 0x00 (0000ms, 0634ms total)
T09B4 141:910 JLINK_WriteReg(R1, 0x00000400)  returns 0x00 (0000ms, 0634ms total)
T09B4 141:910 JLINK_WriteReg(R2, 0x20000164)  returns 0x00 (0000ms, 0634ms total)
T09B4 141:910 JLINK_WriteReg(R3, 0x00000000)  returns 0x00 (0000ms, 0634ms total)
T09B4 141:910 JLINK_WriteReg(R4, 0x00000000)  returns 0x00 (0000ms, 0634ms total)
T09B4 141:910 JLINK_WriteReg(R5, 0x00000000)  returns 0x00 (0000ms, 0634ms total)
T09B4 141:910 JLINK_WriteReg(R6, 0x00000000)  returns 0x00 (0000ms, 0634ms total)
T09B4 141:910 JLINK_WriteReg(R7, 0x00000000)  returns 0x00 (0000ms, 0634ms total)
T09B4 141:910 JLINK_WriteReg(R8, 0x00000000)  returns 0x00 (0000ms, 0634ms total)
T09B4 141:910 JLINK_WriteReg(R9, 0x20000160)  returns 0x00 (0000ms, 0634ms total)
T09B4 141:911 JLINK_WriteReg(R10, 0x00000000)  returns 0x00 (0000ms, 0635ms total)
T09B4 141:911 JLINK_WriteReg(R11, 0x00000000)  returns 0x00 (0000ms, 0635ms total)
T09B4 141:911 JLINK_WriteReg(R12, 0x00000000)  returns 0x00 (0000ms, 0635ms total)
T09B4 141:911 JLINK_WriteReg(R13 (SP), 0x20001000)  returns 0x00 (0000ms, 0635ms total)
T09B4 141:911 JLINK_WriteReg(R14, 0x20000001)  returns 0x00 (0000ms, 0635ms total)
T09B4 141:911 JLINK_WriteReg(R15 (PC), 0x200000F4)  returns 0x00 (0000ms, 0635ms total)
T09B4 141:911 JLINK_WriteReg(XPSR, 0x01000000)  returns 0x00 (0000ms, 0635ms total)
T09B4 141:911 JLINK_WriteReg(MSP, 0x20001000)  returns 0x00 (0000ms, 0635ms total)
T09B4 141:911 JLINK_WriteReg(PSP, 0x20001000)  returns 0x00 (0000ms, 0635ms total)
T09B4 141:911 JLINK_WriteReg(CFBP, 0x00000000)  returns 0x00 (0000ms, 0635ms total)
T09B4 141:911 JLINK_SetBPEx(Addr = 0x20000000, Type = 0xFFFFFFF2)  returns 0x00000007 (0000ms, 0635ms total)
T09B4 141:911 JLINK_Go() -- CPU_ReadMem(4 bytes @ 0xE0001000) (0004ms, 0639ms total)
T09B4 141:915 JLINK_IsHalted()  returns FALSE (0001ms, 0640ms total)
T09B4 141:935 JLINK_IsHalted()  returns FALSE (0001ms, 0640ms total)
T09B4 141:938 JLINK_IsHalted()  returns FALSE (0001ms, 0640ms total)
T09B4 141:941 JLINK_IsHalted()  returns FALSE (0001ms, 0640ms total)
T09B4 141:944 JLINK_IsHalted()  returns FALSE (0001ms, 0640ms total)
T09B4 141:947 JLINK_IsHalted() -- CPU_ReadMem(2 bytes @ 0x20000000)  returns TRUE (0004ms, 0644ms total)
T09B4 141:951 JLINK_ReadReg(R15 (PC))  returns 0x20000000 (0000ms, 0640ms total)
T09B4 141:951 JLINK_ClrBPEx(BPHandle = 0x00000007)  returns 0x00 (0000ms, 0640ms total)
T09B4 141:951 JLINK_ReadReg(R0)  returns 0x00000000 (0000ms, 0640ms total)
T09B4 141:952 JLINK_WriteMem(0x20000164, 0x029C Bytes, ...) - Data: 70 47 10 B4 B0 FA 80 FC 00 FA 0C F0 50 EA 01 04 ... -- CPU_WriteMem(668 bytes @ 0x20000164)  returns 0x29C (0005ms, 0645ms total)
T09B4 141:957 JLINK_WriteMem(0x20000400, 0x0164 Bytes, ...) - Data: 13 48 00 F0 14 FA 00 28 F9 D0 28 20 00 F0 76 F8 ... -- CPU_WriteMem(356 bytes @ 0x20000400)  returns 0x164 (0003ms, 0648ms total)
T09B4 141:960 JLINK_WriteReg(R0, 0x08000C00)  returns 0x00 (0000ms, 0648ms total)
T09B4 141:960 JLINK_WriteReg(R1, 0x00000400)  returns 0x00 (0000ms, 0648ms total)
T09B4 141:960 JLINK_WriteReg(R2, 0x20000164)  returns 0x00 (0000ms, 0648ms total)
T09B4 141:960 JLINK_WriteReg(R3, 0x00000000)  returns 0x00 (0000ms, 0648ms total)
T09B4 141:960 JLINK_WriteReg(R4, 0x00000000)  returns 0x00 (0000ms, 0648ms total)
T09B4 141:960 JLINK_WriteReg(R5, 0x00000000)  returns 0x00 (0000ms, 0648ms total)
T09B4 141:960 JLINK_WriteReg(R6, 0x00000000)  returns 0x00 (0000ms, 0648ms total)
T09B4 141:960 JLINK_WriteReg(R7, 0x00000000)  returns 0x00 (0000ms, 0648ms total)
T09B4 141:960 JLINK_WriteReg(R8, 0x00000000)  returns 0x00 (0000ms, 0648ms total)
T09B4 141:960 JLINK_WriteReg(R9, 0x20000160)  returns 0x00 (0000ms, 0648ms total)
T09B4 141:960 JLINK_WriteReg(R10, 0x00000000)  returns 0x00 (0000ms, 0648ms total)
T09B4 141:960 JLINK_WriteReg(R11, 0x00000000)  returns 0x00 (0000ms, 0648ms total)
T09B4 141:960 JLINK_WriteReg(R12, 0x00000000)  returns 0x00 (0001ms, 0649ms total)
T09B4 141:961 JLINK_WriteReg(R13 (SP), 0x20001000)  returns 0x00 (0000ms, 0649ms total)
T09B4 141:961 JLINK_WriteReg(R14, 0x20000001)  returns 0x00 (0000ms, 0649ms total)
T09B4 141:961 JLINK_WriteReg(R15 (PC), 0x200000F4)  returns 0x00 (0000ms, 0649ms total)
T09B4 141:961 JLINK_WriteReg(XPSR, 0x01000000)  returns 0x00 (0000ms, 0649ms total)
T09B4 141:961 JLINK_WriteReg(MSP, 0x20001000)  returns 0x00 (0000ms, 0649ms total)
T09B4 141:961 JLINK_WriteReg(PSP, 0x20001000)  returns 0x00 (0000ms, 0649ms total)
T09B4 141:961 JLINK_WriteReg(CFBP, 0x00000000)  returns 0x00 (0000ms, 0649ms total)
T09B4 141:961 JLINK_SetBPEx(Addr = 0x20000000, Type = 0xFFFFFFF2)  returns 0x00000008 (0000ms, 0649ms total)
T09B4 141:961 JLINK_Go() -- CPU_ReadMem(4 bytes @ 0xE0001000) (0004ms, 0653ms total)
T09B4 141:965 JLINK_IsHalted()  returns FALSE (0001ms, 0654ms total)
T09B4 141:970 JLINK_IsHalted()  returns FALSE (0000ms, 0653ms total)
T09B4 141:972 JLINK_IsHalted()  returns FALSE (0000ms, 0653ms total)
T09B4 141:975 JLINK_IsHalted()  returns FALSE (0000ms, 0653ms total)
T09B4 141:977 JLINK_IsHalted()  returns FALSE (0000ms, 0653ms total)
T09B4 141:982 JLINK_IsHalted()  returns FALSE (0000ms, 0653ms total)
T09B4 141:985 JLINK_IsHalted()  returns FALSE (0000ms, 0653ms total)
T09B4 141:987 JLINK_IsHalted()  returns FALSE (0000ms, 0653ms total)
T09B4 141:990 JLINK_IsHalted()  returns FALSE (0000ms, 0653ms total)
T09B4 141:997 JLINK_IsHalted() -- CPU_ReadMem(2 bytes @ 0x20000000)  returns TRUE (0004ms, 0657ms total)
T09B4 142:001 JLINK_ReadReg(R15 (PC))  returns 0x20000000 (0000ms, 0653ms total)
T09B4 142:001 JLINK_ClrBPEx(BPHandle = 0x00000008)  returns 0x00 (0000ms, 0653ms total)
T09B4 142:001 JLINK_ReadReg(R0)  returns 0x00000000 (0000ms, 0653ms total)
T09B4 142:002 JLINK_WriteMem(0x20000164, 0x029C Bytes, ...) - Data: 00 F0 A2 FF 06 21 00 20 03 F0 7A F9 0B E0 4F F4 ... -- CPU_WriteMem(668 bytes @ 0x20000164)  returns 0x29C (0005ms, 0658ms total)
T09B4 142:007 JLINK_WriteMem(0x20000400, 0x0164 Bytes, ...) - Data: 08 FA 0C F8 C2 F8 14 80 91 F8 03 C0 BC F1 48 0F ... -- CPU_WriteMem(356 bytes @ 0x20000400)  returns 0x164 (0004ms, 0662ms total)
T09B4 142:011 JLINK_WriteReg(R0, 0x08001000)  returns 0x00 (0000ms, 0662ms total)
T09B4 142:011 JLINK_WriteReg(R1, 0x00000400)  returns 0x00 (0000ms, 0662ms total)
T09B4 142:011 JLINK_WriteReg(R2, 0x20000164)  returns 0x00 (0000ms, 0662ms total)
T09B4 142:011 JLINK_WriteReg(R3, 0x00000000)  returns 0x00 (0000ms, 0662ms total)
T09B4 142:011 JLINK_WriteReg(R4, 0x00000000)  returns 0x00 (0000ms, 0662ms total)
T09B4 142:011 JLINK_WriteReg(R5, 0x00000000)  returns 0x00 (0000ms, 0662ms total)
T09B4 142:011 JLINK_WriteReg(R6, 0x00000000)  returns 0x00 (0000ms, 0662ms total)
T09B4 142:011 JLINK_WriteReg(R7, 0x00000000)  returns 0x00 (0000ms, 0662ms total)
T09B4 142:011 JLINK_WriteReg(R8, 0x00000000)  returns 0x00 (0000ms, 0662ms total)
T09B4 142:011 JLINK_WriteReg(R9, 0x20000160)  returns 0x00 (0000ms, 0662ms total)
T09B4 142:011 JLINK_WriteReg(R10, 0x00000000)  returns 0x00 (0000ms, 0662ms total)
T09B4 142:011 JLINK_WriteReg(R11, 0x00000000)  returns 0x00 (0000ms, 0662ms total)
T09B4 142:011 JLINK_WriteReg(R12, 0x00000000)  returns 0x00 (0000ms, 0662ms total)
T09B4 142:011 JLINK_WriteReg(R13 (SP), 0x20001000)  returns 0x00 (0000ms, 0662ms total)
T09B4 142:011 JLINK_WriteReg(R14, 0x20000001)  returns 0x00 (0000ms, 0662ms total)
T09B4 142:012 JLINK_WriteReg(R15 (PC), 0x200000F4)  returns 0x00 (0000ms, 0662ms total)
T09B4 142:012 JLINK_WriteReg(XPSR, 0x01000000)  returns 0x00 (0000ms, 0662ms total)
T09B4 142:012 JLINK_WriteReg(MSP, 0x20001000)  returns 0x00 (0000ms, 0662ms total)
T09B4 142:012 JLINK_WriteReg(PSP, 0x20001000)  returns 0x00 (0000ms, 0662ms total)
T09B4 142:012 JLINK_WriteReg(CFBP, 0x00000000)  returns 0x00 (0000ms, 0662ms total)
T09B4 142:012 JLINK_SetBPEx(Addr = 0x20000000, Type = 0xFFFFFFF2)  returns 0x00000009 (0000ms, 0662ms total)
T09B4 142:012 JLINK_Go() -- CPU_ReadMem(4 bytes @ 0xE0001000) (0004ms, 0666ms total)
T09B4 142:016 JLINK_IsHalted()  returns FALSE (0001ms, 0667ms total)
T09B4 142:031 JLINK_IsHalted()  returns FALSE (0001ms, 0667ms total)
T09B4 142:034 JLINK_IsHalted()  returns FALSE (0000ms, 0666ms total)
T09B4 142:039 JLINK_IsHalted()  returns FALSE (0000ms, 0666ms total)
T09B4 142:042 JLINK_IsHalted()  returns FALSE (0000ms, 0666ms total)
T09B4 142:045 JLINK_IsHalted()  returns FALSE (0000ms, 0666ms total)
T09B4 142:048 JLINK_IsHalted() -- CPU_ReadMem(2 bytes @ 0x20000000)  returns TRUE (0004ms, 0670ms total)
T09B4 142:052 JLINK_ReadReg(R15 (PC))  returns 0x20000000 (0000ms, 0666ms total)
T09B4 142:052 JLINK_ClrBPEx(BPHandle = 0x00000009)  returns 0x00 (0000ms, 0666ms total)
T09B4 142:052 JLINK_ReadReg(R0)  returns 0x00000000 (0000ms, 0666ms total)
T09B4 142:053 JLINK_WriteMem(0x20000164, 0x029C Bytes, ...) - Data: DB FC 01 20 00 F0 C0 FE 00 BF 61 20 00 F0 9E FE ... -- CPU_WriteMem(668 bytes @ 0x20000164)  returns 0x29C (0005ms, 0671ms total)
T09B4 142:058 JLINK_WriteMem(0x20000400, 0x0164 Bytes, ...) - Data: FF F7 90 FC 08 21 39 48 FF F7 1A FE 04 21 37 48 ... -- CPU_WriteMem(356 bytes @ 0x20000400)  returns 0x164 (0003ms, 0674ms total)
T09B4 142:061 JLINK_WriteReg(R0, 0x08001400)  returns 0x00 (0000ms, 0674ms total)
T09B4 142:061 JLINK_WriteReg(R1, 0x00000400)  returns 0x00 (0000ms, 0674ms total)
T09B4 142:061 JLINK_WriteReg(R2, 0x20000164)  returns 0x00 (0000ms, 0674ms total)
T09B4 142:061 JLINK_WriteReg(R3, 0x00000000)  returns 0x00 (0000ms, 0674ms total)
T09B4 142:061 JLINK_WriteReg(R4, 0x00000000)  returns 0x00 (0000ms, 0674ms total)
T09B4 142:061 JLINK_WriteReg(R5, 0x00000000)  returns 0x00 (0000ms, 0674ms total)
T09B4 142:061 JLINK_WriteReg(R6, 0x00000000)  returns 0x00 (0000ms, 0674ms total)
T09B4 142:061 JLINK_WriteReg(R7, 0x00000000)  returns 0x00 (0000ms, 0674ms total)
T09B4 142:062 JLINK_WriteReg(R8, 0x00000000)  returns 0x00 (0000ms, 0675ms total)
T09B4 142:062 JLINK_WriteReg(R9, 0x20000160)  returns 0x00 (0000ms, 0675ms total)
T09B4 142:062 JLINK_WriteReg(R10, 0x00000000)  returns 0x00 (0000ms, 0675ms total)
T09B4 142:062 JLINK_WriteReg(R11, 0x00000000)  returns 0x00 (0000ms, 0675ms total)
T09B4 142:062 JLINK_WriteReg(R12, 0x00000000)  returns 0x00 (0000ms, 0675ms total)
T09B4 142:062 JLINK_WriteReg(R13 (SP), 0x20001000)  returns 0x00 (0000ms, 0675ms total)
T09B4 142:062 JLINK_WriteReg(R14, 0x20000001)  returns 0x00 (0000ms, 0675ms total)
T09B4 142:062 JLINK_WriteReg(R15 (PC), 0x200000F4)  returns 0x00 (0000ms, 0675ms total)
T09B4 142:062 JLINK_WriteReg(XPSR, 0x01000000)  returns 0x00 (0000ms, 0675ms total)
T09B4 142:062 JLINK_WriteReg(MSP, 0x20001000)  returns 0x00 (0000ms, 0675ms total)
T09B4 142:062 JLINK_WriteReg(PSP, 0x20001000)  returns 0x00 (0000ms, 0675ms total)
T09B4 142:062 JLINK_WriteReg(CFBP, 0x00000000)  returns 0x00 (0000ms, 0675ms total)
T09B4 142:062 JLINK_SetBPEx(Addr = 0x20000000, Type = 0xFFFFFFF2)  returns 0x0000000A (0000ms, 0675ms total)
T09B4 142:062 JLINK_Go() -- CPU_ReadMem(4 bytes @ 0xE0001000) (0004ms, 0679ms total)
T09B4 142:066 JLINK_IsHalted()  returns FALSE (0001ms, 0680ms total)
T09B4 142:072 JLINK_IsHalted()  returns FALSE (0001ms, 0680ms total)
T09B4 142:075 JLINK_IsHalted()  returns FALSE (0000ms, 0680ms total)
T09B4 142:078 JLINK_IsHalted()  returns FALSE (0000ms, 0680ms total)
T09B4 142:081 JLINK_IsHalted()  returns FALSE (0000ms, 0680ms total)
T09B4 142:084 JLINK_IsHalted()  returns FALSE (0000ms, 0680ms total)
T09B4 142:087 JLINK_IsHalted()  returns FALSE (0000ms, 0680ms total)
T09B4 142:092 JLINK_IsHalted()  returns FALSE (0001ms, 0681ms total)
T09B4 142:095 JLINK_IsHalted()  returns FALSE (0001ms, 0681ms total)
T09B4 142:098 JLINK_IsHalted() -- CPU_ReadMem(2 bytes @ 0x20000000)  returns TRUE (0004ms, 0684ms total)
T09B4 142:102 JLINK_ReadReg(R15 (PC))  returns 0x20000000 (0000ms, 0680ms total)
T09B4 142:102 JLINK_ClrBPEx(BPHandle = 0x0000000A)  returns 0x00 (0000ms, 0680ms total)
T09B4 142:102 JLINK_ReadReg(R0)  returns 0x00000000 (0000ms, 0680ms total)
T09B4 142:104 JLINK_WriteMem(0x20000164, 0x029C Bytes, ...) - Data: DF FB 08 21 7B 48 FF F7 69 FD 04 21 79 48 FF F7 ... -- CPU_WriteMem(668 bytes @ 0x20000164)  returns 0x29C (0005ms, 0685ms total)
T09B4 142:109 JLINK_WriteMem(0x20000400, 0x0164 Bytes, ...) - Data: 06 E0 0E 49 48 5D 00 F0 7B FA 6D 1C 60 1C C4 B2 ... -- CPU_WriteMem(356 bytes @ 0x20000400)  returns 0x164 (0003ms, 0688ms total)
T09B4 142:112 JLINK_WriteReg(R0, 0x08001800)  returns 0x00 (0000ms, 0688ms total)
T09B4 142:112 JLINK_WriteReg(R1, 0x00000400)  returns 0x00 (0000ms, 0688ms total)
T09B4 142:112 JLINK_WriteReg(R2, 0x20000164)  returns 0x00 (0000ms, 0688ms total)
T09B4 142:112 JLINK_WriteReg(R3, 0x00000000)  returns 0x00 (0000ms, 0688ms total)
T09B4 142:112 JLINK_WriteReg(R4, 0x00000000)  returns 0x00 (0000ms, 0688ms total)
T09B4 142:112 JLINK_WriteReg(R5, 0x00000000)  returns 0x00 (0000ms, 0688ms total)
T09B4 142:112 JLINK_WriteReg(R6, 0x00000000)  returns 0x00 (0000ms, 0688ms total)
T09B4 142:112 JLINK_WriteReg(R7, 0x00000000)  returns 0x00 (0000ms, 0688ms total)
T09B4 142:112 JLINK_WriteReg(R8, 0x00000000)  returns 0x00 (0000ms, 0688ms total)
T09B4 142:112 JLINK_WriteReg(R9, 0x20000160)  returns 0x00 (0000ms, 0688ms total)
T09B4 142:112 JLINK_WriteReg(R10, 0x00000000)  returns 0x00 (0000ms, 0688ms total)
T09B4 142:112 JLINK_WriteReg(R11, 0x00000000)  returns 0x00 (0000ms, 0688ms total)
T09B4 142:113 JLINK_WriteReg(R12, 0x00000000)  returns 0x00 (0000ms, 0688ms total)
T09B4 142:113 JLINK_WriteReg(R13 (SP), 0x20001000)  returns 0x00 (0000ms, 0688ms total)
T09B4 142:113 JLINK_WriteReg(R14, 0x20000001)  returns 0x00 (0000ms, 0688ms total)
T09B4 142:113 JLINK_WriteReg(R15 (PC), 0x200000F4)  returns 0x00 (0000ms, 0688ms total)
T09B4 142:113 JLINK_WriteReg(XPSR, 0x01000000)  returns 0x00 (0000ms, 0688ms total)
T09B4 142:113 JLINK_WriteReg(MSP, 0x20001000)  returns 0x00 (0000ms, 0688ms total)
T09B4 142:113 JLINK_WriteReg(PSP, 0x20001000)  returns 0x00 (0000ms, 0688ms total)
T09B4 142:113 JLINK_WriteReg(CFBP, 0x00000000)  returns 0x00 (0000ms, 0688ms total)
T09B4 142:113 JLINK_SetBPEx(Addr = 0x20000000, Type = 0xFFFFFFF2)  returns 0x0000000B (0000ms, 0688ms total)
T09B4 142:113 JLINK_Go() -- CPU_ReadMem(4 bytes @ 0xE0001000) (0004ms, 0692ms total)
T09B4 142:117 JLINK_IsHalted()  returns FALSE (0001ms, 0693ms total)
T09B4 142:125 JLINK_IsHalted()  returns FALSE (0000ms, 0692ms total)
T09B4 142:127 JLINK_IsHalted()  returns FALSE (0000ms, 0692ms total)
T09B4 142:129 JLINK_IsHalted()  returns FALSE (0000ms, 0692ms total)
T09B4 142:131 JLINK_IsHalted()  returns FALSE (0000ms, 0692ms total)
T09B4 142:133 JLINK_IsHalted()  returns FALSE (0000ms, 0692ms total)
T09B4 142:135 JLINK_IsHalted()  returns FALSE (0000ms, 0692ms total)
T09B4 142:138 JLINK_IsHalted()  returns FALSE (0001ms, 0693ms total)
T09B4 142:157 JLINK_IsHalted() -- CPU_ReadMem(2 bytes @ 0x20000000)  returns TRUE (0004ms, 0696ms total)
T09B4 142:161 JLINK_ReadReg(R15 (PC))  returns 0x20000000 (0001ms, 0693ms total)
T09B4 142:162 JLINK_ClrBPEx(BPHandle = 0x0000000B)  returns 0x00 (0000ms, 0693ms total)
T09B4 142:162 JLINK_ReadReg(R0)  returns 0x00000000 (0000ms, 0693ms total)
T09B4 142:164 JLINK_WriteMem(0x20000164, 0x029C Bytes, ...) - Data: B1 1C C8 B2 39 46 00 F0 8B F9 00 BF 06 E0 0E 49 ... -- CPU_WriteMem(668 bytes @ 0x20000164)  returns 0x29C (0005ms, 0698ms total)
T09B4 142:170 JLINK_WriteMem(0x20000400, 0x0164 Bytes, ...) - Data: A6 20 00 F0 53 F8 A8 20 00 F0 50 F8 3F 20 00 F0 ... -- CPU_WriteMem(356 bytes @ 0x20000400)  returns 0x164 (0003ms, 0702ms total)
T09B4 142:173 JLINK_WriteReg(R0, 0x08001C00)  returns 0x00 (0000ms, 0702ms total)
T09B4 142:173 JLINK_WriteReg(R1, 0x00000400)  returns 0x00 (0000ms, 0702ms total)
T09B4 142:173 JLINK_WriteReg(R2, 0x20000164)  returns 0x00 (0000ms, 0702ms total)
T09B4 142:173 JLINK_WriteReg(R3, 0x00000000)  returns 0x00 (0000ms, 0702ms total)
T09B4 142:173 JLINK_WriteReg(R4, 0x00000000)  returns 0x00 (0001ms, 0703ms total)
T09B4 142:174 JLINK_WriteReg(R5, 0x00000000)  returns 0x00 (0000ms, 0703ms total)
T09B4 142:174 JLINK_WriteReg(R6, 0x00000000)  returns 0x00 (0000ms, 0703ms total)
T09B4 142:174 JLINK_WriteReg(R7, 0x00000000)  returns 0x00 (0000ms, 0703ms total)
T09B4 142:174 JLINK_WriteReg(R8, 0x00000000)  returns 0x00 (0000ms, 0703ms total)
T09B4 142:174 JLINK_WriteReg(R9, 0x20000160)  returns 0x00 (0000ms, 0703ms total)
T09B4 142:174 JLINK_WriteReg(R10, 0x00000000)  returns 0x00 (0000ms, 0703ms total)
T09B4 142:174 JLINK_WriteReg(R11, 0x00000000)  returns 0x00 (0000ms, 0703ms total)
T09B4 142:174 JLINK_WriteReg(R12, 0x00000000)  returns 0x00 (0000ms, 0703ms total)
T09B4 142:174 JLINK_WriteReg(R13 (SP), 0x20001000)  returns 0x00 (0000ms, 0703ms total)
T09B4 142:175 JLINK_WriteReg(R14, 0x20000001)  returns 0x00 (0000ms, 0703ms total)
T09B4 142:175 JLINK_WriteReg(R15 (PC), 0x200000F4)  returns 0x00 (0000ms, 0703ms total)
T09B4 142:175 JLINK_WriteReg(XPSR, 0x01000000)  returns 0x00 (0000ms, 0703ms total)
T09B4 142:175 JLINK_WriteReg(MSP, 0x20001000)  returns 0x00 (0000ms, 0703ms total)
T09B4 142:175 JLINK_WriteReg(PSP, 0x20001000)  returns 0x00 (0000ms, 0703ms total)
T09B4 142:175 JLINK_WriteReg(CFBP, 0x00000000)  returns 0x00 (0000ms, 0703ms total)
T09B4 142:175 JLINK_SetBPEx(Addr = 0x20000000, Type = 0xFFFFFFF2)  returns 0x0000000C (0000ms, 0703ms total)
T09B4 142:175 JLINK_Go() -- CPU_ReadMem(4 bytes @ 0xE0001000) (0005ms, 0708ms total)
T09B4 142:180 JLINK_IsHalted()  returns FALSE (0002ms, 0710ms total)
T09B4 142:189 JLINK_IsHalted()  returns FALSE (0001ms, 0709ms total)
T09B4 142:192 JLINK_IsHalted()  returns FALSE (0001ms, 0709ms total)
T09B4 142:195 JLINK_IsHalted()  returns FALSE (0001ms, 0709ms total)
T09B4 142:198 JLINK_IsHalted()  returns FALSE (0001ms, 0709ms total)
T09B4 142:218 JLINK_IsHalted() -- CPU_ReadMem(2 bytes @ 0x20000000)  returns TRUE (0004ms, 0712ms total)
T09B4 142:223 JLINK_ReadReg(R15 (PC))  returns 0x20000000 (0000ms, 0708ms total)
T09B4 142:223 JLINK_ClrBPEx(BPHandle = 0x0000000C)  returns 0x00 (0000ms, 0708ms total)
T09B4 142:223 JLINK_ReadReg(R0)  returns 0x00000000 (0000ms, 0708ms total)
T09B4 142:226 JLINK_WriteMem(0x20000164, 0x029C Bytes, ...) - Data: 41 EA 80 01 01 4A 11 60 70 47 00 00 00 70 00 40 ... -- CPU_WriteMem(668 bytes @ 0x20000164)  returns 0x29C (0005ms, 0713ms total)
T09B4 142:231 JLINK_WriteMem(0x20000400, 0x0164 Bytes, ...) - Data: C2 F3 03 40 03 49 08 80 09 1D 0A 80 FF F7 A2 FF ... -- CPU_WriteMem(356 bytes @ 0x20000400)  returns 0x164 (0004ms, 0717ms total)
T09B4 142:235 JLINK_WriteReg(R0, 0x08002000)  returns 0x00 (0000ms, 0717ms total)
T09B4 142:235 JLINK_WriteReg(R1, 0x00000400)  returns 0x00 (0000ms, 0717ms total)
T09B4 142:235 JLINK_WriteReg(R2, 0x20000164)  returns 0x00 (0000ms, 0717ms total)
T09B4 142:235 JLINK_WriteReg(R3, 0x00000000)  returns 0x00 (0000ms, 0717ms total)
T09B4 142:235 JLINK_WriteReg(R4, 0x00000000)  returns 0x00 (0000ms, 0717ms total)
T09B4 142:235 JLINK_WriteReg(R5, 0x00000000)  returns 0x00 (0000ms, 0717ms total)
T09B4 142:235 JLINK_WriteReg(R6, 0x00000000)  returns 0x00 (0001ms, 0718ms total)
T09B4 142:236 JLINK_WriteReg(R7, 0x00000000)  returns 0x00 (0000ms, 0718ms total)
T09B4 142:236 JLINK_WriteReg(R8, 0x00000000)  returns 0x00 (0000ms, 0718ms total)
T09B4 142:236 JLINK_WriteReg(R9, 0x20000160)  returns 0x00 (0000ms, 0718ms total)
T09B4 142:236 JLINK_WriteReg(R10, 0x00000000)  returns 0x00 (0000ms, 0718ms total)
T09B4 142:236 JLINK_WriteReg(R11, 0x00000000)  returns 0x00 (0000ms, 0718ms total)
T09B4 142:236 JLINK_WriteReg(R12, 0x00000000)  returns 0x00 (0000ms, 0718ms total)
T09B4 142:236 JLINK_WriteReg(R13 (SP), 0x20001000)  returns 0x00 (0001ms, 0719ms total)
T09B4 142:237 JLINK_WriteReg(R14, 0x20000001)  returns 0x00 (0000ms, 0719ms total)
T09B4 142:237 JLINK_WriteReg(R15 (PC), 0x200000F4)  returns 0x00 (0000ms, 0719ms total)
T09B4 142:237 JLINK_WriteReg(XPSR, 0x01000000)  returns 0x00 (0000ms, 0719ms total)
T09B4 142:237 JLINK_WriteReg(MSP, 0x20001000)  returns 0x00 (0000ms, 0719ms total)
T09B4 142:237 JLINK_WriteReg(PSP, 0x20001000)  returns 0x00 (0000ms, 0719ms total)
T09B4 142:237 JLINK_WriteReg(CFBP, 0x00000000)  returns 0x00 (0000ms, 0719ms total)
T09B4 142:237 JLINK_SetBPEx(Addr = 0x20000000, Type = 0xFFFFFFF2)  returns 0x0000000D (0000ms, 0719ms total)
T09B4 142:237 JLINK_Go() -- CPU_ReadMem(4 bytes @ 0xE0001000) (0005ms, 0724ms total)
T09B4 142:242 JLINK_IsHalted()  returns FALSE (0002ms, 0726ms total)
T09B4 142:256 JLINK_IsHalted()  returns FALSE (0001ms, 0725ms total)
T09B4 142:259 JLINK_IsHalted()  returns FALSE (0001ms, 0725ms total)
T09B4 142:267 JLINK_IsHalted()  returns FALSE (0001ms, 0725ms total)
T09B4 142:270 JLINK_IsHalted()  returns FALSE (0001ms, 0725ms total)
T09B4 142:278 JLINK_IsHalted() -- CPU_ReadMem(2 bytes @ 0x20000000)  returns TRUE (0005ms, 0729ms total)
T09B4 142:283 JLINK_ReadReg(R15 (PC))  returns 0x20000000 (0000ms, 0724ms total)
T09B4 142:283 JLINK_ClrBPEx(BPHandle = 0x0000000D)  returns 0x00 (0000ms, 0724ms total)
T09B4 142:283 JLINK_ReadReg(R0)  returns 0x00000000 (0000ms, 0724ms total)
T09B4 142:286 JLINK_WriteMem(0x20000164, 0x029C Bytes, ...) - Data: 6F F8 10 BD 30 B5 1A 48 00 68 1A 4A B0 FB F2 F1 ... -- CPU_WriteMem(668 bytes @ 0x20000164)  returns 0x29C (0005ms, 0729ms total)
T09B4 142:291 JLINK_WriteMem(0x20000400, 0x0164 Bytes, ...) - Data: 06 F5 01 2C 01 D1 0C 30 04 E0 02 2C 01 D1 10 30 ... -- CPU_WriteMem(356 bytes @ 0x20000400)  returns 0x164 (0003ms, 0732ms total)
T09B4 142:295 JLINK_WriteReg(R0, 0x08002400)  returns 0x00 (0000ms, 0733ms total)
T09B4 142:295 JLINK_WriteReg(R1, 0x00000400)  returns 0x00 (0000ms, 0733ms total)
T09B4 142:295 JLINK_WriteReg(R2, 0x20000164)  returns 0x00 (0000ms, 0733ms total)
T09B4 142:295 JLINK_WriteReg(R3, 0x00000000)  returns 0x00 (0000ms, 0733ms total)
T09B4 142:295 JLINK_WriteReg(R4, 0x00000000)  returns 0x00 (0000ms, 0733ms total)
T09B4 142:295 JLINK_WriteReg(R5, 0x00000000)  returns 0x00 (0000ms, 0733ms total)
T09B4 142:295 JLINK_WriteReg(R6, 0x00000000)  returns 0x00 (0000ms, 0733ms total)
T09B4 142:295 JLINK_WriteReg(R7, 0x00000000)  returns 0x00 (0000ms, 0733ms total)
T09B4 142:295 JLINK_WriteReg(R8, 0x00000000)  returns 0x00 (0000ms, 0733ms total)
T09B4 142:296 JLINK_WriteReg(R9, 0x20000160)  returns 0x00 (0000ms, 0734ms total)
T09B4 142:296 JLINK_WriteReg(R10, 0x00000000)  returns 0x00 (0000ms, 0734ms total)
T09B4 142:296 JLINK_WriteReg(R11, 0x00000000)  returns 0x00 (0000ms, 0734ms total)
T09B4 142:296 JLINK_WriteReg(R12, 0x00000000)  returns 0x00 (0000ms, 0734ms total)
T09B4 142:296 JLINK_WriteReg(R13 (SP), 0x20001000)  returns 0x00 (0000ms, 0734ms total)
T09B4 142:296 JLINK_WriteReg(R14, 0x20000001)  returns 0x00 (0000ms, 0734ms total)
T09B4 142:296 JLINK_WriteReg(R15 (PC), 0x200000F4)  returns 0x00 (0000ms, 0734ms total)
T09B4 142:296 JLINK_WriteReg(XPSR, 0x01000000)  returns 0x00 (0000ms, 0734ms total)
T09B4 142:296 JLINK_WriteReg(MSP, 0x20001000)  returns 0x00 (0000ms, 0734ms total)
T09B4 142:297 JLINK_WriteReg(PSP, 0x20001000)  returns 0x00 (0000ms, 0734ms total)
T09B4 142:297 JLINK_WriteReg(CFBP, 0x00000000)  returns 0x00 (0000ms, 0734ms total)
T09B4 142:297 JLINK_SetBPEx(Addr = 0x20000000, Type = 0xFFFFFFF2)  returns 0x0000000E (0000ms, 0734ms total)
T09B4 142:297 JLINK_Go() -- CPU_ReadMem(4 bytes @ 0xE0001000) (0005ms, 0739ms total)
T09B4 142:302 JLINK_IsHalted()  returns FALSE (0001ms, 0740ms total)
T09B4 142:329 JLINK_IsHalted()  returns FALSE (0001ms, 0740ms total)
T09B4 142:332 JLINK_IsHalted() -- CPU_ReadMem(2 bytes @ 0x20000000)  returns TRUE (0005ms, 0744ms total)
T09B4 142:337 JLINK_ReadReg(R15 (PC))  returns 0x20000000 (0000ms, 0739ms total)
T09B4 142:337 JLINK_ClrBPEx(BPHandle = 0x0000000E)  returns 0x00 (0001ms, 0740ms total)
T09B4 142:338 JLINK_ReadReg(R0)  returns 0x00000000 (0000ms, 0740ms total)
T09B4 142:340 JLINK_WriteMem(0x20000164, 0x029C Bytes, ...) - Data: 04 60 02 E0 43 60 00 E0 23 60 3A B1 1C 68 D5 1A ... -- CPU_WriteMem(668 bytes @ 0x20000164)  returns 0x29C (0005ms, 0745ms total)
T09B4 142:345 JLINK_WriteMem(0x20000400, 0x0164 Bytes, ...) - Data: 2E 28 16 D1 16 F8 01 0F 44 F0 04 04 2A 28 0D D0 ... -- CPU_WriteMem(356 bytes @ 0x20000400)  returns 0x164 (0003ms, 0748ms total)
T09B4 142:349 JLINK_WriteReg(R0, 0x08002800)  returns 0x00 (0000ms, 0748ms total)
T09B4 142:349 JLINK_WriteReg(R1, 0x00000400)  returns 0x00 (0000ms, 0748ms total)
T09B4 142:349 JLINK_WriteReg(R2, 0x20000164)  returns 0x00 (0000ms, 0748ms total)
T09B4 142:349 JLINK_WriteReg(R3, 0x00000000)  returns 0x00 (0000ms, 0748ms total)
T09B4 142:349 JLINK_WriteReg(R4, 0x00000000)  returns 0x00 (0000ms, 0748ms total)
T09B4 142:349 JLINK_WriteReg(R5, 0x00000000)  returns 0x00 (0000ms, 0748ms total)
